#freq, s11_mag, s21_mag, s11_mp_mag, s21_mp_mag
1000000, -0.18791967599, -21.9516151857, -24.8838393722, -0.554108022236
1198396.79359, -0.18871560221, -21.9909376262, -25.1825696163, -0.608342374177
1396793.58717, -0.189020910697, -22.0342832225, -26.0101810583, -0.657354410633
1595190.38076, -0.188810646997, -22.0821575698, -27.4660292005, -0.701231802742
1793587.17435, -0.188203704339, -22.1327973541, -29.7852996431, -0.740429841198
1991983.96794, -0.187417188445, -22.1830261281, -33.5557523064, -0.77581594344
2190380.76152, -0.186697244362, -22.2293654695, -40.6988986818, -0.808540194055
2388777.55511, -0.186249667894, -22.2691018922, -44.0945639917, -0.839805263103
2587174.3487, -0.18618865527, -22.3010466714, -35.5265242329, -0.870615829817
2785571.14228, -0.186513244794, -22.3258313024, -31.4498970533, -0.901583145927
2983967.93587, -0.187113776851, -22.3457004629, -29.1702398616, -0.932839308839
3182364.72946, -0.18780574435, -22.3638744736, -27.9055494173, -0.964081291359
3380761.52305, -0.188383504673, -22.3836511993, -27.372986857, -0.994726146825
3579158.31663, -0.188680422466, -22.4074920718, -27.4699297722, -1.02412798611
3777555.11022, -0.18861764267, -22.4363575622, -28.1959121233, -1.05179311434
3975951.90381, -0.188225321435, -22.4694935758, -29.6513452491, -1.07753469201
4174348.69739, -0.187629437356, -22.5047274114, -32.1083795521, -1.10152876924
4372745.49098, -0.187010177289, -22.5391644336, -36.2747414427, -1.12426227307
4571142.28457, -0.186547279242, -22.5700572374, -43.7103525808, -1.1463930809
4769539.07816, -0.186369527346, -22.5955889916, -40.9653071845, -1.1685652145
4967935.87174, -0.186521299916, -22.6153635721, -34.8371231431, -1.19123339976
5166332.66533, -0.186952858033, -22.6304891744, -31.4882163957, -1.21454718242
5364729.45892, -0.187535616094, -22.6432468885, -29.5361901266, -1.23832639039
5563126.25251, -0.188098826092, -22.6564356267, -28.4708747846, -1.26213209109
5761523.04609, -0.188478897746, -22.6725703983, -28.090875253, -1.28540920579
5959919.83968, -0.188567662849, -22.6931619439, -28.3304140198, -1.30765698607
6158316.63327, -0.188344273862, -22.7182947325, -29.2157547589, -1.32857777973
6356713.42685, -0.187879893688, -22.7466330277, -30.8806601131, -1.34816265753
6555110.22044, -0.187314049942, -22.7758462966, -33.6597708803, -1.3666919634
6753507.01403, -0.186811663106, -22.8033110034, -38.3645657029, -1.38465288711
6951903.80762, -0.186515200531, -22.8268705365, -44.2242568517, -1.40259925446
7150300.6012, -0.186505713331, -22.8454368122, -38.787271005, -1.42099444807
7348697.39479, -0.186782035308, -22.8592783421, -34.0057532826, -1.44008287658
7547094.18838, -0.187262237141, -22.8699288525, -31.2183545078, -1.45982676028
7745490.98196, -0.187806751728, -22.879745483, -29.5755112928, -1.47992541844
7943887.77555, -0.188257909459, -22.8912343528, -28.7245494407, -1.49990985393
8142284.56914, -0.188485738304, -22.9063295417, -28.5221993468, -1.51928357265
8340681.36273, -0.188426473724, -22.9258363602, -28.9337503481, -1.53766806773
8539078.15631, -0.188101120262, -22.9492096729, -30.0120375282, -1.5549115686
8737474.9499, -0.187607804491, -22.9747345181, -31.9276708353, -1.57113108082
8935871.74349, -0.187091077745, -23.0000463287, -35.0809957194, -1.58667721404
9134268.53707, -0.18669899073, -23.0228242409, -40.2263302424, -1.6020328364
9332665.33066, -0.186541329444, -23.0414507396, -42.7525054918, -1.61767499208
9531062.12425, -0.186660146332, -23.0554566235, -37.1339919339, -1.6339397872
9729458.91784, -0.187019227595, -23.0656394285, -33.2455817965, -1.65092913604
9927855.71142, -0.187514525228, -23.0738300931, -30.9022704553, -1.66848589936
10126252.505, -0.188003203429, -23.0823706969, -29.5339407455, -1.68624380358
10324649.2986, -0.188344363619, -23.0934435911, -28.8884188739, -1.70373663294
10523046.0922, -0.188440297718, -23.108441562, -28.8659220624, -1.72053424503
10721442.8858, -0.18826546514, -23.1275674149, -29.4587845057, -1.73636620093
10919839.6794, -0.187873486336, -23.1497867182, -30.7466460216, -1.75119817655
11118236.4729, -0.187379969335, -23.1731457915, -32.9397806706, -1.76524042572
11316633.2665, -0.18692748045, -23.195350809, -36.4917532441, -1.77888671644
11515030.0601, -0.186644285625, -23.2144291982, -41.6227251944, -1.79260150867
11713426.8537, -0.186608896972, -23.2292830712, -40.7787082494, -1.80678767681
11911823.6473, -0.186829293106, -23.2399874609, -35.8125162327, -1.82167266738
12110220.4409, -0.187241322333, -23.2477600364, -32.576235511, -1.83724571037
12308617.2345, -0.187726526348, -23.2546132619, -30.5983663012, -1.85326393572
12507014.0281, -0.188145345315, -23.2627810542, -29.4760668807, -1.86932492458
12705410.8216, -0.188377292501, -23.2740769723, -29.0261258444, -1.88498404318
12903807.6152, -0.188356470037, -23.2893697385, -29.1830259107, -1.89988234663
13102204.4088, -0.188091011691, -23.308335592, -29.9637620084, -1.91384865443
13300601.2024, -0.187659918017, -23.3295638728, -31.4755870442, -1.92694733768
13498997.996, -0.187188660267, -23.3509796545, -33.9691053614, -1.93945900787
13697394.7896, -0.186812046553, -23.3704494142, -37.897308137, -1.95180000771
13895791.5832, -0.186636001205, -23.3863886072, -42.0751547281, -1.96440370915
14094188.3768, -0.186708737938, -23.398201742, -38.9637762155, -1.97759737878
14292585.1703, -0.187008173675, -23.4064408593, -34.720641489, -1.99150987773
14490981.9639, -0.187448257658, -23.4126447031, -31.9908923916, -2.00603666466
14689378.7575, -0.187902798256, -23.418901788, -30.3238782374, -2.02087182415
14887775.5511, -0.188241150468, -23.4272541528, -29.4257689123, -2.03559744474
15086172.3447, -0.188366187852, -23.4391086502, -29.1635096689, -2.04980400339
15284569.1383, -0.188243051348, -23.454829988, -29.4999398277, -2.06320723853
15482965.9319, -0.187909218041, -23.4736405533, -30.4754755325, -2.07572842454
15681362.7255, -0.187462587335, -23.4938570453, -32.2258601275, -2.08751592916
15879759.519, -0.187031931425, -23.5133871703, -35.036271291, -2.09890241932
16078156.3126, -0.18673952972, -23.5303331138, -39.2101273008, -2.11030998069
16276553.1062, -0.186667083132, -23.543526592, -41.4436694417, -2.12213008262
16474949.8998, -0.186833744306, -23.5528504036, -37.4128086572, -2.13461251605
16673346.6934, -0.187191284604, -23.5592648434, -33.7980321111, -2.14779510904
16871743.487, -0.187637415879, -23.5645343724, -31.4795280191, -2.16149436679
17070140.2806, -0.188044266945, -23.5707267082, -30.0841975053, -2.1753594285
17268537.0741, -0.188294920112, -23.5796204065, -29.3937863077, -2.18897335539
17466933.8677, -0.188317677516, -23.5921906272, -29.3135906812, -2.20197241056
17665330.6613, -0.188107287038, -23.6083278305, -29.8310170939, -2.21414928473
17863727.4549, -0.187726065074, -23.6268763507, -31.0094000001, -2.22551137508
18062124.2485, -0.187284724363, -23.6459789741, -33.0129318031, -2.23627808094
18260521.0421, -0.186909574293, -23.6636186633, -36.1398708975, -2.24681818956
18458917.8357, -0.186706499425, -23.6781945121, -40.2221330524, -2.25754501617
18657314.6293, -0.186731852331, -23.6889693305, -40.1688998273, -2.26879902517
18855711.4228, -0.186977445742, -23.6962703339, -36.0971067879, -2.2807513043
19054108.2164, -0.187372995059, -23.7013930663, -33.0063491332, -2.29335562018
19252505.01, -0.187805473585, -23.7062347004, -31.0332567836, -2.30636273868
19450901.8036, -0.188150858456, -23.7127541241, -29.8808054263, -2.31939259993
19649298.5972, -0.188309931062, -23.7224085324, -29.3857845464, -2.33204328389
19847695.3908, -0.188237537972, -23.7357312893, -29.4841740477, -2.34400543785
20046092.1844, -0.187955862774, -23.7521798379, -30.1855585623, -2.35514975174
20244488.978, -0.187547312893, -23.7703004002, -31.5760013337, -2.36556314382
20442885.7715, -0.187129651126, -23.7881562073, -33.845226251, -2.37552375303
20641282.5651, -0.186821686922, -23.8038869084, -37.2485285629, -2.38542190892
20839679.3587, -0.18670990657, -23.816235234, -40.647298033, -2.39564933991
21038076.1523, -0.186824961465, -23.8248959228, -38.7252438032, -2.40648795853
21236472.9459, -0.187133594021, -23.8305964294, -34.9722719824, -2.4180299855
21434869.7395, -0.187547797765, -23.8348902067, -32.3199462385, -2.43015237235
21633266.5331, -0.187949173351, -23.8397170317, -30.6450031525, -2.44255272316
21831663.3267, -0.188222523981, -23.8468489437, -29.7139173068, -2.45483618557
22030060.1202, -0.188289416363, -23.8573787262, -29.4052965321, -2.46662814694
22228456.9138, -0.188131389669, -23.8714032522, -29.6807255274, -2.47768050802
22426853.7074, -0.187795185897, -23.8879992327, -30.5704948583, -2.48794168062
22625250.501, -0.187378364457, -23.9054979135, -32.1829268061, -2.49757088632
22823647.2946, -0.187000328188, -23.9219719262, -34.7235860857, -2.50689286385
23022044.0882, -0.186768070385, -23.9357871972, -38.2815046337, -2.51630583764
23220440.8818, -0.186746516532, -23.9460620645, -40.3388665262, -2.52616851182
23418837.6754, -0.186941023058, -23.9529102257, -37.3422887331, -2.53669825664
23617234.4689, -0.18729607571, -23.9574054949, -34.0009597822, -2.54790953405
23815631.2625, -0.187710504766, -23.9612786368, -31.7210343395, -2.55961034581
24014028.0561, -0.188065716888, -23.9664263528, -30.309368664, -2.57145754893
24212424.8497, -0.18825969601, -23.9743672812, -29.5834700769, -2.58305497406
24410821.6433, -0.188236951531, -23.9858023021, -29.4549533927, -2.59406611919
24609218.4369, -0.188004923249, -24.0004121071, -29.9076151076, -2.60430938839
24807615.2305, -0.187631420574, -24.0169545956, -30.9915016864, -2.61380926851
25006012.024, -0.187224131295, -24.0336304911, -32.8354381687, -2.6227892362
25204408.8176, -0.186899109575, -24.0486038826, -35.63682613, -2.6316084748
25402805.6112, -0.186747952619, -24.0605238384, -39.0900638093, -2.64066015045
25601202.4048, -0.186812685486, -24.0689015121, -39.4544887965, -2.65025984081
25799599.1984, -0.187074504586, -24.0742434085, -36.0904071997, -2.6605559317
25997995.992, -0.187458953686, -24.0779073818, -33.1548953708, -2.67148761101
26196392.7856, -0.187856413101, -24.0817194521, -31.1969609858, -2.68280261714
26394789.5792, -0.188152990902, -24.0874538903, -30.0223527462, -2.6941294786
26593186.3727, -0.188263496288, -24.0963222465, -29.4895094366, -2.70508338157
26791583.1663, -0.188156584779, -24.1086218789, -29.5370456515, -2.7153753599
26989979.9599, -0.187863928881, -24.1236515425, -30.1686912678, -2.72489396477
27188376.7535, -0.187470427036, -24.139919816, -31.4533962962, -2.7337366725
27386773.5471, -0.187088913169, -24.1555804912, -33.5356112238, -2.74218229842
27585170.3407, -0.186827601464, -24.1689625762, -36.5526674244, -2.75061219013
27783567.1343, -0.18675986716, -24.1790417311, -39.4817181513, -2.75940221068
27981963.9279, -0.186904296964, -24.1857245758, -38.2902349996, -2.76881604589
28180360.7214, -0.187219746668, -24.1898721441, -34.9774443593, -2.77893026362
28378757.515, -0.18761656414, -24.1930572935, -32.4131564557, -2.7896126969
28577154.3086, -0.187981446802, -24.1971199026, -30.7385812438, -2.80056036554
28775551.1022, -0.188209701187, -24.2036407969, -29.7810872913, -2.81138592794
28973947.8958, -0.188235814492, -24.2134847966, -29.4323373933, -2.82172780033
29172344.6894, -0.188052839847, -24.2265497816, -29.6537887447, -2.83135257652
29370741.483, -0.187714234126, -24.241799148, -30.4675309926, -2.84022096156
29569138.2766, -0.187317663774, -24.2575668413, -31.9600708797, -2.8484988885
29767535.0701, -0.186976296339, -24.2720401379, -34.2801098077, -2.85651072267
29965931.8637, -0.186786582978, -24.2837762904, -37.4042992192, -2.86464761145
30164328.6573, -0.186801617487, -24.2921070893, -39.3304112502, -2.87325664466
30362725.4509, -0.187016784149, -24.2973232161, -37.0669508798, -2.88254225108
30561122.2445, -0.187371044221, -24.3005912355, -33.9920864752, -2.89250802898
30759519.0381, -0.187763636414, -24.303625302, -31.7602698344, -2.90295582765
30957915.8317, -0.18808227543, -24.3082007135, -30.3392320249, -2.91354231559
31156312.6253, -0.188235445488, -24.3156440921, -29.5836177917, -2.92387671343
31354709.4188, -0.188179308843, -24.3264487395, -29.4125578634, -2.93363166588
31553106.2124, -0.187930648615, -24.3401320516, -29.8074419272, -2.94263588269
31751503.006, -0.187561597891, -24.3553789582, -30.8074915343, -2.95092254675
31949899.7996, -0.187178079503, -24.3704261006, -32.5139658488, -2.95872007965
32148296.5932, -0.186889072718, -24.3835692345, -35.0559117724, -2.9663877787
32346693.3868, -0.186775970466, -24.3936457519, -38.0799806015, -2.97431426707
32545090.1804, -0.186870295631, -24.4003589834, -38.6866081259, -2.98280728845
32743486.9739, -0.187145203291, -24.4043590507, -35.8941939229, -2.99200616796
32941883.7675, -0.187522761343, -24.4070600086, -33.1192628412, -3.00184209815
33140280.5611, -0.187895418253, -24.4102412145, -31.1847299856, -3.01205775263
33338677.3547, -0.188156407303, -24.4155402616, -29.9940595309, -3.02228056298
33537074.1483, -0.188230739082, -24.4239807264, -29.4287305377, -3.03212856623
33735470.9419, -0.188097354207, -24.4356748176, -29.4310763765, -3.04131864416
33933867.7355, -0.187795242809, -24.4497921805, -30.0003412678, -3.04974660114
34132264.5291, -0.187411585047, -24.4648041635, -31.1915913378, -3.05751670543
34330661.3226, -0.187056008701, -24.4789274753, -33.1149130289, -3.06491249449
34529058.1162, -0.186829181234, -24.4906338927, -35.8332796539, -3.07231687541
34727454.9098, -0.186794815999, -24.4990803937, -38.4385222724, -3.08010382691
34925851.7034, -0.186962339075, -24.5043432222, -37.7328752773, -3.08853222163
35124248.497, -0.187284339916, -24.5073952416, -34.8130569202, -3.09767207552
35322645.2906, -0.187669463314, -24.5098328813, -32.3449753046, -3.10738449649
35521042.0842, -0.188007795534, -24.5134246349, -30.677934078, -3.11736116082
35719438.8778, -0.188202255223, -24.5196048187, -29.699563268, -3.1272119638
35917835.6713, -0.188197000606, -24.5290584075, -29.3158176189, -3.13657570017
36116232.4649, -0.187993952639, -24.5415219788, -29.489076419, -3.14522231931
36314629.2585, -0.187652022178, -24.5558622593, -30.2348661368, -3.15311802014
36513026.0521, -0.187269435966, -24.5704073768, -31.6221834226, -3.16043503469
36711422.8457, -0.186955078487, -24.5834289985, -33.758007305, -3.16750331323
36909819.6393, -0.186797672104, -24.5936332311, -36.5564878423, -3.17471750315
37108216.4329, -0.18684133495, -24.6005229217, -38.3735397021, -3.18242520364
37306613.2265, -0.187073616756, -24.6045350141, -36.652234677, -3.19082814177
37505010.02, -0.187428836555, -24.6069177765, -33.8329987416, -3.19992457844
37703406.8136, -0.187806054737, -24.6093799977, -31.6574910316, -3.2095096106
37901803.6072, -0.188097398641, -24.6136057467, -30.233430096, -3.2192333656
38100200.4008, -0.188219172887, -24.6207701259, -29.4532783075, -3.22870033065
38298597.1944, -0.188136503344, -24.6311981077, -29.2447705732, -3.23758144483
38496993.988, -0.187873616718, -24.6442704868, -29.5879791469, -3.24570721405
38695390.7816, -0.187506410622, -24.6586059971, -30.5133330391, -3.25311576321
38893787.5752, -0.187139940022, -24.6724627429, -32.1003207102, -3.26004242443
39092184.3687, -0.186878131595, -24.6842374179, -34.4300160181, -3.26685365529
39290581.1623, -0.186794694346, -24.6929180451, -37.1375132336, -3.27394361486
39488977.9559, -0.186912959314, -24.6983661252, -37.8889357293, -3.28162241509
39687374.7495, -0.187199538012, -24.7013542609, -35.5631707781, -3.29002780508
39885771.5431, -0.187573333911, -24.7033498474, -32.9509696159, -3.29908568431
40084168.3367, -0.187927915505, -24.7061015008, -31.0473606524, -3.30853096122
40282565.1303, -0.188161689645, -24.7111402451, -29.8463849672, -3.31798278071
40480961.9238, -0.188207461017, -24.7193374243, -29.2535485556, -3.32705254846
40679358.7174, -0.188052296508, -24.7306511921, -29.215894099, -3.3354539641
40877755.511, -0.187741233754, -24.7441396407, -29.7293837506, -3.34308405458
41076152.3046, -0.187363708739, -24.7582362234, -30.83778745, -3.35005253979
41274549.0982, -0.187027319198, -24.7712024516, -32.6246321501, -3.35665130282
41472945.8918, -0.18682716835, -24.7816231423, -35.1039287508, -3.36327233708
41671342.6854, -0.186819506543, -24.7888039741, -37.4665208666, -3.37029697432
41869739.479, -0.187006414255, -24.7929643854, -37.0969782109, -3.37798760569
42068136.2725, -0.187335179578, -24.7951758422, -34.5255217276, -3.386412789
42266533.0661, -0.187712618781, -24.797061648, -32.1598385785, -3.39542739385
42464929.8597, -0.18803102774, -24.8003376447, -30.5071087734, -3.40471362455
42663326.6533, -0.188199025776, -24.8063204578, -29.5132048564, -3.41387115236
42861723.4469, -0.188168343214, -24.8155458971, -29.0993612532, -3.42253056827
43060120.2405, -0.187948101068, -24.8276129665, -29.2298314862, -3.43045793623
43258517.0341, -0.187601917819, -24.8413017792, -29.9149775373, -3.4376210715
43456913.8277, -0.187228949236, -24.8549285178, -31.2096355391, -3.44419904143
43655310.6212, -0.186935126136, -24.8668292337, -33.1894304448, -3.45053212222
43853707.4148, -0.186803309563, -24.8758311589, -35.7322675859, -3.45702601354
44052104.2084, -0.186870510574, -24.8815807221, -37.452978628, -3.46403702538
44250501.002, -0.187117815535, -24.8846414312, -36.1415923902, -3.47177072252
44448897.7956, -0.187475426186, -24.886336483, -33.5639661082, -3.48022307246
44647294.5892, -0.187841772687, -24.8883771045, -31.4518195464, -3.48918120448
44845691.3828, -0.188112087849, -24.8923762027, -30.0308793059, -3.49828365808
45044088.1764, -0.188208696055, -24.8993840085, -29.231260822, -3.50712285423
45242484.9699, -0.188103912673, -24.9095827359, -28.9902227742, -3.51536051045
45440881.7635, -0.187828184927, -24.9222337648, -29.2874927227, -3.52282339001
45639278.5571, -0.187460855726, -24.9358936418, -30.1463950021, -3.52955251682
45837675.3507, -0.187106760393, -24.9488319989, -31.6290169119, -3.53579211654
46036072.1443, -0.18686615973, -24.9595259013, -33.7817031048, -3.54192121286
46234468.9379, -0.186806781455, -24.9670889516, -36.2429555752, -3.54834676119
46432865.7315, -0.186945307737, -24.9715183628, -37.0793410963, -3.55538829716
46631262.5251, -0.187242785386, -24.9736954002, -35.1359490757, -3.56318684728
46829659.3186, -0.187615120305, -24.9751392026, -32.6855663687, -3.57166434277
47028056.1122, -0.187956315493, -24.9775785358, -30.8197487293, -3.58054541904
47226452.9058, -0.188168598712, -24.982458116, -29.6141212131, -3.58943539492
47424849.6994, -0.188190929166, -24.990520908, -28.9986878751, -3.59793209977
47623246.493, -0.1880170519, -25.0015916244, -28.926061349, -3.60573970596
47821643.2866, -0.187697222473, -25.0146282984, -29.3899741686, -3.61275250421
48020040.0802, -0.187323152458, -25.0280257514, -30.4249909042, -3.61908515947
48218436.8737, -0.187001241699, -25.0400779305, -32.0937629624, -3.62504096439
48416833.6673, -0.186822400531, -25.0494625848, -34.3767804157, -3.63102671414
48615230.4609, -0.186836923244, -25.055612134, -36.5468041129, -3.63743783423
48813627.2545, -0.187040776344, -25.0588714882, -36.4139086674, -3.64454608008
49012024.0481, -0.187376584065, -25.0604019508, -34.1486657671, -3.65242186443
49210420.8417, -0.187749216363, -25.0618561211, -31.8894847973, -3.66091371179
49408817.6353, -0.188052338518, -25.0649099911, -30.2574741848, -3.66969091453
49607214.4289, -0.188198937911, -25.0707820432, -29.2533326099, -3.67833720169
49805611.2224, -0.188146871931, -25.0798796357, -28.8142351931, -3.68646862635
50004008.016, -0.187911328532, -25.0916801346, -28.9071451131, -3.69384221919
50202404.8096, -0.187560143622, -25.1048836986, -29.5384545281, -3.70042488573
50400801.6032, -0.187193680959, -25.1177902667, -30.7514708565, -3.70640329827
50599198.3968, -0.186915854972, -25.1287865931, -32.5977204076, -3.71213187027
50797595.1904, -0.186804967551, -25.1368021504, -34.9333001816, -3.71803310547
50995991.984, -0.186892217576, -25.1416082742, -36.5657253725, -3.72447807495
